
**** 10/16/19 09:12:35 ****** PSpice 17.2.0 (March 2016) ****** ID# 0 ********

 ** Profile: "SCHEMATIC1-PROJECT_1"  [ H:\00_Fall_2019\JEDL\Project2\jedl_project_2-pspicefiles\schematic1\project_1.sim ] 


 ****     CIRCUIT DESCRIPTION


******************************************************************************




** Creating circuit file "PROJECT_1.cir" 
** WARNING: THIS AUTOMATICALLY GENERATED FILE MAY BE OVERWRITTEN BY SUBSEQUENT SIMULATIONS

*Libraries: 
* Profile Libraries :
* Local Libraries :
* From [PSPICE NETLIST] section of C:\Users\o167m805\cdssetup\OrCAD_PSpice\17.2.0\PSpice.ini file:
.lib "nom.lib" 

*Analysis directives: 
.TRAN  0 5 0 
.OPTIONS ADVCONV
.PROBE64 V(alias(*)) I(alias(*)) W(alias(*)) D(alias(*)) NOISE(alias(*)) 
.INC "..\SCHEMATIC1.net" 



**** INCLUDING SCHEMATIC1.net ****
* source JEDL_PROJECT_2
X_U1         0 0 N00863 N00646 N00754 0 0 N01035 N00220 N00220 N00852 LM723
V_V1         N00220 0 8Vdc
C_C1         0 N00220  0.1u  TC=0,0 
C_C4         0 N00220  0.1u  TC=0,0 
C_C5         N00646 N00220  0.047u  TC=0,0 
R_R1         N00646 N00754  1k TC=0,0 
R_R2         0 N00646  1k TC=0,0 
C_C6         N00863 N00852  470p  TC=0,0 
R_R3         N00863 N00852  220K TC=0,0 
R_R4         N00852 N02077  1k TC=0,0 
R_R5         0 N00852  1k TC=0,0 
L_L1         N00220 N01484  100uH  
R_R7         0 N01035  470 TC=0,0 
R_ARD_Error_Voltage         0 N01035  1k TC=0,0 
V_V2         N01886 0  
+PULSE 8 0 0 1E-9 1E-9 1 2
C_C3         0 N02077  2200u  TC=0,0 
C_C2         0 N02077  0.1u  TC=0,0 
R_LOAD         0 N02077  1K TC=0,0 
M_M1         N01484 N01886 0 0 IRF510
D_D1         N01484 N02077 D1N5817 
D_D2         N01484 N02077 D1N5817 
D_D3         N01484 N02077 D1N5817 

**** RESUMING PROJECT_1.cir ****
.END

**** 10/16/19 09:12:35 ****** PSpice 17.2.0 (March 2016) ****** ID# 0 ********

 ** Profile: "SCHEMATIC1-PROJECT_1"  [ H:\00_Fall_2019\JEDL\Project2\jedl_project_2-pspicefiles\schematic1\project_1.sim ] 


 ****     Diode MODEL PARAMETERS


******************************************************************************




               D1N5817         X_U1.Dz         
          IS    2.835000E-06   50.000000E-15 
         ISR   37.750000E-06                 
         IKF     .3227                       
          BV                    5.79         
         IBV                   50.000000E-09 
          RS     .04712         4            
         CJO  472.400000E-12                 
          VJ     .75                         
           M     .6215                       
         XTI    0                            


**** 10/16/19 09:12:35 ****** PSpice 17.2.0 (March 2016) ****** ID# 0 ********

 ** Profile: "SCHEMATIC1-PROJECT_1"  [ H:\00_Fall_2019\JEDL\Project2\jedl_project_2-pspicefiles\schematic1\project_1.sim ] 


 ****     BJT MODEL PARAMETERS


******************************************************************************




               X_U1.Npn1       
               NPN             
       LEVEL    1            
          IS   10.000000E-15 
          BF   55            
          NF    1            
          BR    1            
          NR    1            
         ISS    0            
          RE    0            
          RC    0            
         CJE    0            
         VJE     .75         
         CJC    0            
         VJC     .75         
         MJC     .33         
        XCJC    1            
         CJS    0            
         VJS     .75         
          KF    0            
          AF    1            
          CN    2.42         
           D     .87         


**** 10/16/19 09:12:35 ****** PSpice 17.2.0 (March 2016) ****** ID# 0 ********

 ** Profile: "SCHEMATIC1-PROJECT_1"  [ H:\00_Fall_2019\JEDL\Project2\jedl_project_2-pspicefiles\schematic1\project_1.sim ] 


 ****     MOSFET MODEL PARAMETERS


******************************************************************************




               IRF510          
               NMOS            
       LEVEL    3            
           L    2.000000E-06 
           W     .64         
         VTO    3.697        
          KP   20.680000E-06 
       GAMMA    0            
         PHI     .6          
      LAMBDA    0            
          RD     .02108      
          RS     .4508       
          RG    2.977        
         RDS  444.400000E+03 
          IS  202.900000E-15 
          JS    0            
          PB     .8          
        PBSW     .8          
         CBD  366.500000E-12 
          CJ    0            
        CJSW    0            
          TT  135.000000E-09 
        CGSO  600.500000E-12 
        CGDO   62.710000E-12 
        CGBO    0            
         TOX  100.000000E-09 
          XJ    0            
       UCRIT   10.000000E+03 
       DELTA    0            
         ETA    0            
      DIOMOD    1            
         VFB    0            
        LETA    0            
        WETA    0            
          U0    0            
        TEMP    0            
         VDD    5            
       XPART    0            


**** 10/16/19 09:12:35 ****** PSpice 17.2.0 (March 2016) ****** ID# 0 ********

 ** Profile: "SCHEMATIC1-PROJECT_1"  [ H:\00_Fall_2019\JEDL\Project2\jedl_project_2-pspicefiles\schematic1\project_1.sim ] 


 ****     INITIAL TRANSIENT SOLUTION       TEMPERATURE =   27.000 DEG C


******************************************************************************



 NODE   VOLTAGE     NODE   VOLTAGE     NODE   VOLTAGE     NODE   VOLTAGE


(N00220)    8.0000 (N00646)    3.5393 (N00754)    7.0966 (N00852)    4.1206     

(N00863)    3.4918 (N01035)    2.7966 (N01484)    8.0000 (N01886)    8.0000     

(N02077)    7.8208 (X_U1.20)    2.8846                   (X_U1.21)    3.5072    

(X_U1.22)    7.1500                   (X_U1.23)    2.7966                       

(X_U1.24)     .0012                   




    VOLTAGE SOURCE CURRENTS
    NAME         CURRENT

    V_V1        -6.470E+00
    V_V2        -4.441E-16
    X_U1.Vmon    8.700E-03

    TOTAL POWER DISSIPATION   5.18E+01  WATTS



          JOB CONCLUDED

**** 10/16/19 09:12:35 ****** PSpice 17.2.0 (March 2016) ****** ID# 0 ********

 ** Profile: "SCHEMATIC1-PROJECT_1"  [ H:\00_Fall_2019\JEDL\Project2\jedl_project_2-pspicefiles\schematic1\project_1.sim ] 


 ****     JOB STATISTICS SUMMARY


******************************************************************************



  License check-out time            =       19.36
  Total job time (using Solver 1)   =         .14
